Debug: 17 19 options.c:98 add_default_dirs(): bindir=/usr/local/bin
Debug: 18 19 options.c:99 add_default_dirs(): pkgdatadir=/usr/local/share/openocd
Debug: 19 19 options.c:100 add_default_dirs(): run_prefix=
Debug: 20 19 configuration.c:44 add_script_search_dir(): adding /root/.openocd
Debug: 21 19 configuration.c:44 add_script_search_dir(): adding /usr/local/share/openocd/site
Debug: 22 19 configuration.c:44 add_script_search_dir(): adding /usr/local/share/openocd/scripts
Debug: 23 19 configuration.c:84 find_file(): found sysfsgpio-rpi.cfg
Debug: 24 20 command.c:145 script_debug(): command - ocd_command ocd_command type ocd_interface sysfsgpio
Debug: 25 20 command.c:145 script_debug(): command - interface ocd_interface sysfsgpio
Debug: 27 20 command.c:366 register_command_handler(): registering 'ocd_sysfsgpio_jtag_nums'...
Debug: 28 20 command.c:325 command_new(): BUG: command 'sysfsgpio_tck_num' does not have the '.usage' field filled out
Debug: 29 20 command.c:366 register_command_handler(): registering 'ocd_sysfsgpio_tck_num'...
Debug: 30 21 command.c:325 command_new(): BUG: command 'sysfsgpio_tms_num' does not have the '.usage' field filled out
Debug: 31 21 command.c:366 register_command_handler(): registering 'ocd_sysfsgpio_tms_num'...
Debug: 32 21 command.c:325 command_new(): BUG: command 'sysfsgpio_tdo_num' does not have the '.usage' field filled out
Debug: 33 21 command.c:366 register_command_handler(): registering 'ocd_sysfsgpio_tdo_num'...
Debug: 34 21 command.c:325 command_new(): BUG: command 'sysfsgpio_tdi_num' does not have the '.usage' field filled out
Debug: 35 21 command.c:366 register_command_handler(): registering 'ocd_sysfsgpio_tdi_num'...
Debug: 36 21 command.c:325 command_new(): BUG: command 'sysfsgpio_srst_num' does not have the '.usage' field filled out
Debug: 37 21 command.c:366 register_command_handler(): registering 'ocd_sysfsgpio_srst_num'...
Debug: 38 21 command.c:325 command_new(): BUG: command 'sysfsgpio_trst_num' does not have the '.usage' field filled out
Debug: 39 21 command.c:366 register_command_handler(): registering 'ocd_sysfsgpio_trst_num'...
Debug: 40 21 command.c:366 register_command_handler(): registering 'ocd_sysfsgpio_swd_nums'...
Debug: 41 21 command.c:325 command_new(): BUG: command 'sysfsgpio_swclk_num' does not have the '.usage' field filled out
Debug: 42 21 command.c:366 register_command_handler(): registering 'ocd_sysfsgpio_swclk_num'...
Debug: 43 22 command.c:325 command_new(): BUG: command 'sysfsgpio_swdio_num' does not have the '.usage' field filled out
Debug: 44 22 command.c:366 register_command_handler(): registering 'ocd_sysfsgpio_swdio_num'...
Debug: 45 22 command.c:145 script_debug(): command - ocd_command ocd_command type ocd_transport select swd
Debug: 46 22 command.c:145 script_debug(): command - ocd_transport ocd_transport select swd
Debug: 47 22 command.c:325 command_new(): BUG: command 'swd' does not have the '.usage' field filled out
Debug: 48 22 command.c:366 register_command_handler(): registering 'ocd_swd'...
Debug: 49 22 command.c:366 register_command_handler(): registering 'ocd_swd'...
Debug: 50 23 bitbang.c:353 bitbang_swd_init(): bitbang_swd_init
Debug: 51 23 command.c:145 script_debug(): command - ocd_command ocd_command type ocd_sysfsgpio_swclk_num 20
Debug: 52 23 command.c:145 script_debug(): command - sysfsgpio_swclk_num ocd_sysfsgpio_swclk_num 20
User : 54 23 command.c:546 command_print(): SysfsGPIO num: swclk = 20
Debug: 55 23 command.c:145 script_debug(): command - ocd_command ocd_command type ocd_sysfsgpio_swdio_num 21
Debug: 56 23 command.c:145 script_debug(): command - sysfsgpio_swdio_num ocd_sysfsgpio_swdio_num 21
User : 58 23 command.c:546 command_print(): SysfsGPIO num: swdio = 21
Debug: 59 24 command.c:145 script_debug(): command - ocd_command ocd_command type ocd_sysfsgpio_srst_num 12
Debug: 60 24 command.c:145 script_debug(): command - sysfsgpio_srst_num ocd_sysfsgpio_srst_num 12
User : 62 24 command.c:546 command_print(): SysfsGPIO num: srst = 12
Debug: 63 24 command.c:145 script_debug(): command - ocd_command ocd_command type ocd_reset_config srst_only
Debug: 64 24 command.c:145 script_debug(): command - reset_config ocd_reset_config srst_only
User : 66 24 command.c:546 command_print(): srst_only separate srst_gates_jtag srst_open_drain connect_deassert_srst
Debug: 67 25 configuration.c:84 find_file(): found /usr/local/share/openocd/scripts/target/kx.cfg
Debug: 68 25 configuration.c:84 find_file(): found /usr/local/share/openocd/scripts/target/swj-dp.tcl
Debug: 69 25 command.c:145 script_debug(): command - ocd_command ocd_command type ocd_transport select
Debug: 70 26 command.c:145 script_debug(): command - ocd_transport ocd_transport select
Debug: 71 26 command.c:145 script_debug(): command - ocd_command ocd_command type ocd_transport select
Debug: 72 26 command.c:145 script_debug(): command - ocd_transport ocd_transport select
Debug: 73 26 command.c:145 script_debug(): command - ocd_command ocd_command type ocd_transport select
Debug: 74 27 command.c:145 script_debug(): command - ocd_transport ocd_transport select
Debug: 75 27 command.c:145 script_debug(): command - ocd_command ocd_command type ocd_transport select
Debug: 76 27 command.c:145 script_debug(): command - ocd_transport ocd_transport select
Debug: 77 27 command.c:145 script_debug(): command - ocd_command ocd_command type ocd_transport select
Debug: 78 27 command.c:145 script_debug(): command - ocd_transport ocd_transport select
Debug: 79 28 command.c:145 script_debug(): command - ocd_command ocd_command type ocd_swd newdap kx cpu -irlen 4 -ircapture 0x1 -irmask 0xf -expected-id 0x2ba01477
Debug: 80 28 command.c:145 script_debug(): command - ocd_swd ocd_swd newdap kx cpu -irlen 4 -ircapture 0x1 -irmask 0xf -expected-id 0x2ba01477
Debug: 81 28 tcl.c:549 jim_newtap_cmd(): Creating New Tap, Chip: kx, Tap: cpu, Dotted: kx.cpu, 8 params
Debug: 82 28 core.c:1302 jtag_tap_init(): Created Tap: kx.cpu @ abs position 0, irlen 0, capture: 0x0 mask: 0x0
Debug: 83 28 command.c:145 script_debug(): command - ocd_command ocd_command type ocd_target create kx.cpu cortex_m -chain-position kx.cpu
Debug: 84 29 command.c:145 script_debug(): command - ocd_target ocd_target create kx.cpu cortex_m -chain-position kx.cpu
Debug: 85 29 target.c:1881 target_free_all_working_areas_restore(): freeing all working areas
Debug: 86 29 command.c:366 register_command_handler(): registering 'ocd_arm'...
Debug: 87 29 command.c:366 register_command_handler(): registering 'ocd_arm'...
Debug: 88 29 command.c:366 register_command_handler(): registering 'ocd_arm'...
Debug: 89 29 command.c:366 register_command_handler(): registering 'ocd_arm'...
Debug: 90 29 command.c:366 register_command_handler(): registering 'ocd_arm'...
Debug: 91 29 command.c:366 register_command_handler(): registering 'ocd_arm'...
Debug: 92 29 command.c:366 register_command_handler(): registering 'ocd_dap'...
Debug: 93 29 command.c:366 register_command_handler(): registering 'ocd_dap'...
Debug: 94 30 command.c:366 register_command_handler(): registering 'ocd_dap'...
Debug: 95 30 command.c:366 register_command_handler(): registering 'ocd_dap'...
Debug: 96 30 command.c:366 register_command_handler(): registering 'ocd_dap'...
Debug: 97 30 command.c:366 register_command_handler(): registering 'ocd_dap'...
Debug: 98 30 command.c:366 register_command_handler(): registering 'ocd_dap'...
Debug: 99 30 command.c:366 register_command_handler(): registering 'ocd_tpiu'...
Debug: 100 30 command.c:366 register_command_handler(): registering 'ocd_itm'...
Debug: 101 30 command.c:366 register_command_handler(): registering 'ocd_itm'...
Debug: 102 30 command.c:366 register_command_handler(): registering 'ocd_cortex_m'...
Debug: 103 30 command.c:366 register_command_handler(): registering 'ocd_cortex_m'...
Debug: 104 31 command.c:366 register_command_handler(): registering 'ocd_cortex_m'...
Debug: 105 31 command.c:366 register_command_handler(): registering 'ocd_kx.cpu'...
Debug: 106 31 command.c:366 register_command_handler(): registering 'ocd_kx.cpu'...
Debug: 107 31 command.c:366 register_command_handler(): registering 'ocd_kx.cpu'...
Debug: 108 31 command.c:366 register_command_handler(): registering 'ocd_kx.cpu'...
Debug: 109 31 command.c:366 register_command_handler(): registering 'ocd_kx.cpu'...
Debug: 110 32 command.c:366 register_command_handler(): registering 'ocd_kx.cpu'...
Debug: 111 32 command.c:366 register_command_handler(): registering 'ocd_kx.cpu'...
Debug: 112 32 command.c:366 register_command_handler(): registering 'ocd_kx.cpu'...
Debug: 113 32 command.c:366 register_command_handler(): registering 'ocd_kx.cpu'...
Debug: 114 32 command.c:366 register_command_handler(): registering 'ocd_kx.cpu'...
Debug: 115 32 command.c:366 register_command_handler(): registering 'ocd_kx.cpu'...
Debug: 116 32 command.c:366 register_command_handler(): registering 'ocd_kx.cpu'...
Debug: 117 32 command.c:366 register_command_handler(): registering 'ocd_kx.cpu'...
Debug: 118 32 command.c:366 register_command_handler(): registering 'ocd_kx.cpu'...
Debug: 119 32 command.c:366 register_command_handler(): registering 'ocd_kx.cpu'...
Debug: 120 33 command.c:366 register_command_handler(): registering 'ocd_kx.cpu'...
Debug: 121 33 command.c:366 register_command_handler(): registering 'ocd_kx.cpu'...
Debug: 122 33 command.c:366 register_command_handler(): registering 'ocd_kx.cpu'...
Debug: 123 33 command.c:366 register_command_handler(): registering 'ocd_kx.cpu'...
Debug: 124 33 command.c:366 register_command_handler(): registering 'ocd_kx.cpu'...
Debug: 125 33 command.c:366 register_command_handler(): registering 'ocd_kx.cpu'...
Debug: 126 33 command.c:366 register_command_handler(): registering 'ocd_kx.cpu'...
Debug: 127 33 command.c:366 register_command_handler(): registering 'ocd_kx.cpu'...
Debug: 128 33 command.c:366 register_command_handler(): registering 'ocd_kx.cpu'...
Debug: 129 33 command.c:366 register_command_handler(): registering 'ocd_kx.cpu'...
Debug: 130 34 command.c:366 register_command_handler(): registering 'ocd_kx.cpu'...
Debug: 131 34 command.c:366 register_command_handler(): registering 'ocd_kx.cpu'...
Debug: 132 34 command.c:366 register_command_handler(): registering 'ocd_kx.cpu'...
Debug: 133 34 command.c:366 register_command_handler(): registering 'ocd_kx.cpu'...
Debug: 134 34 command.c:366 register_command_handler(): registering 'ocd_kx.cpu'...
Debug: 135 34 command.c:366 register_command_handler(): registering 'ocd_kx.cpu'...
Debug: 136 34 command.c:366 register_command_handler(): registering 'ocd_kx.cpu'...
Debug: 137 34 command.c:366 register_command_handler(): registering 'ocd_kx.cpu'...
Debug: 138 34 command.c:366 register_command_handler(): registering 'ocd_kx.cpu'...
Debug: 139 34 command.c:366 register_command_handler(): registering 'ocd_kx.cpu'...
Debug: 140 35 command.c:366 register_command_handler(): registering 'ocd_kx.cpu'...
Debug: 141 35 command.c:366 register_command_handler(): registering 'ocd_kx.cpu'...
Debug: 142 35 command.c:366 register_command_handler(): registering 'ocd_kx.cpu'...
Debug: 143 35 command.c:366 register_command_handler(): registering 'ocd_kx.cpu'...
Debug: 144 35 command.c:366 register_command_handler(): registering 'ocd_kx.cpu'...
Debug: 145 35 command.c:366 register_command_handler(): registering 'ocd_kx.cpu'...
Debug: 146 35 command.c:366 register_command_handler(): registering 'ocd_kx.cpu'...
Debug: 147 35 command.c:366 register_command_handler(): registering 'ocd_kx.cpu'...
Debug: 148 36 command.c:145 script_debug(): command - ocd_command ocd_command type ocd_kx.cpu configure -event examine-end 
	kinetis mdm check_security

Debug: 149 36 command.c:145 script_debug(): command - ocd_kx.cpu ocd_kx.cpu configure -event examine-end 
	kinetis mdm check_security

Debug: 150 36 command.c:145 script_debug(): command - ocd_command ocd_command type ocd_kx.cpu configure -work-area-phys 0x20000000 -work-area-size 0x1000 -work-area-backup 0
Debug: 151 36 command.c:145 script_debug(): command - ocd_kx.cpu ocd_kx.cpu configure -work-area-phys 0x20000000 -work-area-size 0x1000 -work-area-backup 0
Debug: 152 36 target.c:1881 target_free_all_working_areas_restore(): freeing all working areas
Debug: 153 36 target.c:1881 target_free_all_working_areas_restore(): freeing all working areas
Debug: 154 36 target.c:1881 target_free_all_working_areas_restore(): freeing all working areas
Debug: 155 37 command.c:145 script_debug(): command - ocd_command ocd_command type ocd_flash bank kx.flash kinetis 0 0 0 0 kx.cpu
Debug: 156 37 command.c:145 script_debug(): command - ocd_flash ocd_flash bank kx.flash kinetis 0 0 0 0 kx.cpu
Debug: 158 37 command.c:366 register_command_handler(): registering 'ocd_kinetis'...
Debug: 159 37 command.c:366 register_command_handler(): registering 'ocd_kinetis'...
Debug: 160 37 command.c:366 register_command_handler(): registering 'ocd_kinetis'...
Debug: 161 37 command.c:366 register_command_handler(): registering 'ocd_kinetis'...
Info : 162 37 kinetis.c:500 kinetis_flash_bank_command(): add flash_bank kinetis kx.flash
Debug: 163 38 tcl.c:1002 handle_flash_bank_command(): 'kinetis' driver usage field missing
Debug: 164 38 command.c:145 script_debug(): command - ocd_command ocd_command type ocd_adapter_khz 1000
Debug: 165 38 command.c:145 script_debug(): command - adapter_khz ocd_adapter_khz 1000
Debug: 167 38 core.c:1629 jtag_config_khz(): handle jtag khz
Debug: 168 38 core.c:1596 adapter_khz_to_speed(): convert khz to interface specific speed value
Debug: 169 38 core.c:1596 adapter_khz_to_speed(): convert khz to interface specific speed value
User : 170 38 command.c:546 command_print(): adapter speed: 1000 kHz
Debug: 171 38 command.c:145 script_debug(): command - ocd_command ocd_command type ocd_reset_config srst_nogate
Debug: 172 38 command.c:145 script_debug(): command - reset_config ocd_reset_config srst_nogate
User : 174 38 command.c:546 command_print(): srst_only separate srst_nogate srst_open_drain connect_deassert_srst
Debug: 175 39 command.c:145 script_debug(): command - ocd_command ocd_command type ocd_transport select
Debug: 176 39 command.c:145 script_debug(): command - ocd_transport ocd_transport select
Debug: 177 39 command.c:145 script_debug(): command - ocd_command ocd_command type ocd_cortex_m reset_config sysresetreq
Debug: 178 39 command.c:145 script_debug(): command - ocd_cortex_m ocd_cortex_m reset_config sysresetreq
User : 180 39 command.c:546 command_print(): cortex_m reset_config sysresetreq
Debug: 181 40 command.c:145 script_debug(): command - ocd_command ocd_command type ocd_kx.cpu configure -rtos ChibiOS
Debug: 182 40 command.c:145 script_debug(): command - ocd_kx.cpu ocd_kx.cpu configure -rtos ChibiOS
Debug: 183 40 command.c:145 script_debug(): command - ocd_command ocd_command type ocd_init
Debug: 184 40 command.c:145 script_debug(): command - init ocd_init
Debug: 186 40 command.c:145 script_debug(): command - ocd_command ocd_command type ocd_target init
Debug: 187 41 command.c:145 script_debug(): command - ocd_target ocd_target init
Debug: 189 41 command.c:145 script_debug(): command - ocd_command ocd_command type ocd_target names
Debug: 190 41 command.c:145 script_debug(): command - ocd_target ocd_target names
Debug: 191 41 command.c:145 script_debug(): command - ocd_command ocd_command type ocd_kx.cpu cget -event gdb-flash-erase-start
Debug: 192 41 command.c:145 script_debug(): command - ocd_kx.cpu ocd_kx.cpu cget -event gdb-flash-erase-start
Debug: 193 42 command.c:145 script_debug(): command - ocd_command ocd_command type ocd_kx.cpu configure -event gdb-flash-erase-start reset init
Debug: 194 42 command.c:145 script_debug(): command - ocd_kx.cpu ocd_kx.cpu configure -event gdb-flash-erase-start reset init
Debug: 195 42 command.c:145 script_debug(): command - ocd_command ocd_command type ocd_kx.cpu cget -event gdb-flash-write-end
Debug: 196 42 command.c:145 script_debug(): command - ocd_kx.cpu ocd_kx.cpu cget -event gdb-flash-write-end
Debug: 197 42 command.c:145 script_debug(): command - ocd_command ocd_command type ocd_kx.cpu configure -event gdb-flash-write-end reset halt
Debug: 198 43 command.c:145 script_debug(): command - ocd_kx.cpu ocd_kx.cpu configure -event gdb-flash-write-end reset halt
Debug: 199 43 target.c:1306 handle_target_init_command(): Initializing targets...
Debug: 200 43 command.c:366 register_command_handler(): registering 'ocd_target_request'...
Debug: 201 43 command.c:366 register_command_handler(): registering 'ocd_trace'...
Debug: 202 43 command.c:366 register_command_handler(): registering 'ocd_trace'...
Debug: 203 43 command.c:366 register_command_handler(): registering 'ocd_fast_load_image'...
Debug: 204 43 command.c:366 register_command_handler(): registering 'ocd_fast_load'...
Debug: 205 43 command.c:366 register_command_handler(): registering 'ocd_profile'...
Debug: 206 44 command.c:366 register_command_handler(): registering 'ocd_virt2phys'...
Debug: 207 44 command.c:366 register_command_handler(): registering 'ocd_reg'...
Debug: 208 44 command.c:366 register_command_handler(): registering 'ocd_poll'...
Debug: 209 44 command.c:366 register_command_handler(): registering 'ocd_wait_halt'...
Debug: 210 44 command.c:366 register_command_handler(): registering 'ocd_halt'...
Debug: 211 44 command.c:366 register_command_handler(): registering 'ocd_resume'...
Debug: 212 44 command.c:366 register_command_handler(): registering 'ocd_reset'...
Debug: 213 44 command.c:366 register_command_handler(): registering 'ocd_soft_reset_halt'...
Debug: 214 44 command.c:366 register_command_handler(): registering 'ocd_step'...
Debug: 215 45 command.c:366 register_command_handler(): registering 'ocd_mdw'...
Debug: 216 45 command.c:366 register_command_handler(): registering 'ocd_mdh'...
Debug: 217 45 command.c:366 register_command_handler(): registering 'ocd_mdb'...
Debug: 218 45 command.c:366 register_command_handler(): registering 'ocd_mww'...
Debug: 219 45 command.c:366 register_command_handler(): registering 'ocd_mwh'...
Debug: 220 45 command.c:366 register_command_handler(): registering 'ocd_mwb'...
Debug: 221 45 command.c:366 register_command_handler(): registering 'ocd_bp'...
Debug: 222 45 command.c:366 register_command_handler(): registering 'ocd_rbp'...
Debug: 223 45 command.c:366 register_command_handler(): registering 'ocd_wp'...
Debug: 224 45 command.c:366 register_command_handler(): registering 'ocd_rwp'...
Debug: 225 46 command.c:366 register_command_handler(): registering 'ocd_load_image'...
Debug: 226 46 command.c:366 register_command_handler(): registering 'ocd_dump_image'...
Debug: 227 46 command.c:366 register_command_handler(): registering 'ocd_verify_image'...
Debug: 228 46 command.c:366 register_command_handler(): registering 'ocd_test_image'...
Debug: 229 46 command.c:366 register_command_handler(): registering 'ocd_reset_nag'...
Debug: 230 46 command.c:366 register_command_handler(): registering 'ocd_ps'...
Debug: 231 46 command.c:366 register_command_handler(): registering 'ocd_test_mem_access'...
Info : 232 46 sysfsgpio.c:590 sysfsgpio_init(): SysfsGPIO JTAG/SWD bitbang driver
Info : 233 46 sysfsgpio.c:602 sysfsgpio_init(): SWD only mode enabled (specify tck, tms, tdi and tdo gpios to add JTAG mode)
Warn : 234 47 sysfsgpio.c:128 setup_sysfs_gpio(): gpio 20 is already exported
Warn : 235 48 sysfsgpio.c:128 setup_sysfs_gpio(): gpio 21 is already exported
Debug: 236 48 bitbang.c:383 bitbang_swd_switch_seq(): bitbang_swd_switch_seq
Debug: 237 48 bitbang.c:391 bitbang_swd_switch_seq(): JTAG-to-SWD
Debug: 238 48 bitbang.c:360 bitbang_exchange(): bitbang_exchange
Info : 239 49 core.c:1355 adapter_init(): This adapter doesn't support configurable speed
Debug: 240 50 openocd.c:137 handle_init_command(): Debug Adapter init complete
Debug: 241 50 command.c:145 script_debug(): command - ocd_command ocd_command type ocd_transport init
Debug: 242 50 command.c:145 script_debug(): command - ocd_transport ocd_transport init
Debug: 244 50 transport.c:240 handle_transport_init(): handle_transport_init
Debug: 245 50 bitbang.c:383 bitbang_swd_switch_seq(): bitbang_swd_switch_seq
Debug: 246 50 bitbang.c:391 bitbang_swd_switch_seq(): JTAG-to-SWD
Debug: 247 50 bitbang.c:360 bitbang_exchange(): bitbang_exchange
Debug: 248 52 bitbang.c:423 bitbang_swd_read_reg(): bitbang_swd_read_reg
Debug: 249 52 bitbang.c:360 bitbang_exchange(): bitbang_exchange
Debug: 250 52 bitbang.c:360 bitbang_exchange(): bitbang_exchange
Debug: 251 53 bitbang.c:450 bitbang_swd_read_reg(): OK DP read reg 0 = 2ba01477
Debug: 252 53 bitbang.c:482 bitbang_swd_write_reg(): bitbang_swd_write_reg
Debug: 253 54 bitbang.c:360 bitbang_exchange(): bitbang_exchange
Debug: 254 54 bitbang.c:360 bitbang_exchange(): bitbang_exchange
Debug: 255 54 bitbang.c:360 bitbang_exchange(): bitbang_exchange
Debug: 256 55 bitbang.c:509 bitbang_swd_write_reg(): OK DP write reg 0 = 0000001e
Debug: 257 55 bitbang.c:534 bitbang_swd_run_queue(): bitbang_swd_run_queue
Debug: 258 55 bitbang.c:360 bitbang_exchange(): bitbang_exchange
Debug: 259 55 bitbang.c:541 bitbang_swd_run_queue(): SWD queue return value: 00
Info : 260 55 adi_v5_swd.c:125 swd_connect(): SWD IDCODE 0x2ba01477
Debug: 261 55 openocd.c:150 handle_init_command(): Examining targets...
Debug: 262 55 target.c:1499 target_call_event_callbacks(): target event 21 (examine-start)
Debug: 263 55 arm_adi_v5.c:649 ahbap_debugport_init():  
Debug: 264 56 bitbang.c:423 bitbang_swd_read_reg(): bitbang_swd_read_reg
Debug: 265 56 bitbang.c:360 bitbang_exchange(): bitbang_exchange
Debug: 266 56 bitbang.c:360 bitbang_exchange(): bitbang_exchange
Debug: 267 57 bitbang.c:450 bitbang_swd_read_reg(): OK DP read reg 4 = f0000041
Debug: 268 57 bitbang.c:482 bitbang_swd_write_reg(): bitbang_swd_write_reg
Debug: 269 57 bitbang.c:360 bitbang_exchange(): bitbang_exchange
Debug: 270 57 bitbang.c:360 bitbang_exchange(): bitbang_exchange
Debug: 271 58 bitbang.c:360 bitbang_exchange(): bitbang_exchange
Debug: 272 58 bitbang.c:509 bitbang_swd_write_reg(): OK DP write reg 4 = 00000020
Debug: 273 58 bitbang.c:423 bitbang_swd_read_reg(): bitbang_swd_read_reg
Debug: 274 58 bitbang.c:360 bitbang_exchange(): bitbang_exchange
Debug: 275 59 bitbang.c:360 bitbang_exchange(): bitbang_exchange
Debug: 276 60 bitbang.c:450 bitbang_swd_read_reg(): OK DP read reg 4 = 00000040
Debug: 277 60 bitbang.c:482 bitbang_swd_write_reg(): bitbang_swd_write_reg
Debug: 278 60 bitbang.c:360 bitbang_exchange(): bitbang_exchange
Debug: 279 60 bitbang.c:360 bitbang_exchange(): bitbang_exchange
Debug: 280 60 bitbang.c:360 bitbang_exchange(): bitbang_exchange
Debug: 281 61 bitbang.c:509 bitbang_swd_write_reg(): OK DP write reg 4 = 50000000
Debug: 282 61 arm_adi_v5.c:691 ahbap_debugport_init(): DAP: wait CDBGPWRUPACK
Debug: 283 61 arm_adi_v5.h:391 dap_dp_poll_register(): DAP: poll 4, mask 0x20000000, value 0x20000000
Debug: 284 61 bitbang.c:423 bitbang_swd_read_reg(): bitbang_swd_read_reg
Debug: 285 61 bitbang.c:360 bitbang_exchange(): bitbang_exchange
Debug: 286 61 bitbang.c:360 bitbang_exchange(): bitbang_exchange
Debug: 287 62 bitbang.c:450 bitbang_swd_read_reg(): OK DP read reg 4 = f0000040
Debug: 288 62 bitbang.c:534 bitbang_swd_run_queue(): bitbang_swd_run_queue
Debug: 289 62 bitbang.c:360 bitbang_exchange(): bitbang_exchange
Debug: 290 63 bitbang.c:541 bitbang_swd_run_queue(): SWD queue return value: 00
Debug: 291 63 arm_adi_v5.c:698 ahbap_debugport_init(): DAP: wait CSYSPWRUPACK
Debug: 292 63 arm_adi_v5.h:391 dap_dp_poll_register(): DAP: poll 4, mask 0x80000000, value 0x80000000
Debug: 293 63 bitbang.c:423 bitbang_swd_read_reg(): bitbang_swd_read_reg
Debug: 294 63 bitbang.c:360 bitbang_exchange(): bitbang_exchange
Debug: 295 63 bitbang.c:360 bitbang_exchange(): bitbang_exchange
Debug: 296 64 bitbang.c:450 bitbang_swd_read_reg(): OK DP read reg 4 = f0000040
Debug: 297 64 bitbang.c:534 bitbang_swd_run_queue(): bitbang_swd_run_queue
Debug: 298 64 bitbang.c:360 bitbang_exchange(): bitbang_exchange
Debug: 299 65 bitbang.c:541 bitbang_swd_run_queue(): SWD queue return value: 00
Debug: 300 65 bitbang.c:423 bitbang_swd_read_reg(): bitbang_swd_read_reg
Debug: 301 65 bitbang.c:360 bitbang_exchange(): bitbang_exchange
Debug: 302 65 bitbang.c:360 bitbang_exchange(): bitbang_exchange
Debug: 303 66 bitbang.c:450 bitbang_swd_read_reg(): OK DP read reg 4 = f0000040
Debug: 304 66 bitbang.c:482 bitbang_swd_write_reg(): bitbang_swd_write_reg
Debug: 305 66 bitbang.c:360 bitbang_exchange(): bitbang_exchange
Debug: 306 66 bitbang.c:360 bitbang_exchange(): bitbang_exchange
Debug: 307 67 bitbang.c:360 bitbang_exchange(): bitbang_exchange
Debug: 308 67 bitbang.c:509 bitbang_swd_write_reg(): OK DP write reg 4 = 50000001
Debug: 309 67 bitbang.c:423 bitbang_swd_read_reg(): bitbang_swd_read_reg
Debug: 310 67 bitbang.c:360 bitbang_exchange(): bitbang_exchange
Debug: 311 68 bitbang.c:360 bitbang_exchange(): bitbang_exchange
Debug: 312 69 bitbang.c:450 bitbang_swd_read_reg(): OK DP read reg 4 = f0000041
Debug: 313 69 bitbang.c:482 bitbang_swd_write_reg(): bitbang_swd_write_reg
Debug: 314 69 bitbang.c:360 bitbang_exchange(): bitbang_exchange
Debug: 315 69 bitbang.c:360 bitbang_exchange(): bitbang_exchange
Debug: 316 70 bitbang.c:360 bitbang_exchange(): bitbang_exchange
Debug: 317 70 bitbang.c:509 bitbang_swd_write_reg(): OK DP write reg 8 = 00000000
Debug: 318 70 bitbang.c:482 bitbang_swd_write_reg(): bitbang_swd_write_reg
Debug: 319 70 bitbang.c:360 bitbang_exchange(): bitbang_exchange
Debug: 320 70 bitbang.c:360 bitbang_exchange(): bitbang_exchange
Debug: 321 71 bitbang.c:360 bitbang_exchange(): bitbang_exchange
Debug: 322 71 bitbang.c:509 bitbang_swd_write_reg(): OK AP write reg 0 = a2000020
Debug: 323 71 bitbang.c:360 bitbang_exchange(): bitbang_exchange
Debug: 324 71 bitbang.c:482 bitbang_swd_write_reg(): bitbang_swd_write_reg
Debug: 325 71 bitbang.c:360 bitbang_exchange(): bitbang_exchange
Debug: 326 72 bitbang.c:360 bitbang_exchange(): bitbang_exchange
Debug: 327 72 bitbang.c:360 bitbang_exchange(): bitbang_exchange
Debug: 328 73 bitbang.c:509 bitbang_swd_write_reg(): OK AP write reg 4 = 00000000
Debug: 329 73 bitbang.c:360 bitbang_exchange(): bitbang_exchange
Debug: 330 73 bitbang.c:423 bitbang_swd_read_reg(): bitbang_swd_read_reg
Debug: 331 73 bitbang.c:360 bitbang_exchange(): bitbang_exchange
Debug: 332 73 bitbang.c:360 bitbang_exchange(): bitbang_exchange
Debug: 333 74 bitbang.c:450 bitbang_swd_read_reg(): OK AP read reg 0 = 00030003
Debug: 334 74 bitbang.c:360 bitbang_exchange(): bitbang_exchange
Debug: 335 75 bitbang.c:423 bitbang_swd_read_reg(): bitbang_swd_read_reg
Debug: 336 75 bitbang.c:360 bitbang_exchange(): bitbang_exchange
Debug: 337 75 bitbang.c:360 bitbang_exchange(): bitbang_exchange
Debug: 338 76 bitbang.c:450 bitbang_swd_read_reg(): OK DP read reg C = 23000060
Debug: 339 76 bitbang.c:482 bitbang_swd_write_reg(): bitbang_swd_write_reg
Debug: 340 76 bitbang.c:360 bitbang_exchange(): bitbang_exchange
Debug: 341 76 bitbang.c:360 bitbang_exchange(): bitbang_exchange
Debug: 342 77 bitbang.c:360 bitbang_exchange(): bitbang_exchange
Debug: 343 77 bitbang.c:509 bitbang_swd_write_reg(): OK DP write reg 8 = 000000f0
Debug: 344 77 bitbang.c:423 bitbang_swd_read_reg(): bitbang_swd_read_reg
Debug: 345 77 bitbang.c:360 bitbang_exchange(): bitbang_exchange
Debug: 346 77 bitbang.c:360 bitbang_exchange(): bitbang_exchange
Debug: 347 78 bitbang.c:450 bitbang_swd_read_reg(): OK AP read reg 4 = 23000060
Debug: 348 79 bitbang.c:360 bitbang_exchange(): bitbang_exchange
Debug: 349 79 bitbang.c:423 bitbang_swd_read_reg(): bitbang_swd_read_reg
Debug: 350 79 bitbang.c:360 bitbang_exchange(): bitbang_exchange
Debug: 351 79 bitbang.c:360 bitbang_exchange(): bitbang_exchange
Debug: 352 80 bitbang.c:450 bitbang_swd_read_reg(): OK DP read reg C = 00000000
Debug: 353 80 bitbang.c:534 bitbang_swd_run_queue(): bitbang_swd_run_queue
Debug: 354 80 bitbang.c:360 bitbang_exchange(): bitbang_exchange
Debug: 355 80 bitbang.c:541 bitbang_swd_run_queue(): SWD queue return value: 00
Debug: 356 81 arm_adi_v5.c:750 ahbap_debugport_init(): MEM_AP Packed Transfers: enabled
Debug: 357 81 arm_adi_v5.c:761 ahbap_debugport_init(): MEM_AP CFG: large data 0, long address 0, big-endian 0
Debug: 358 81 bitbang.c:482 bitbang_swd_write_reg(): bitbang_swd_write_reg
Debug: 359 81 bitbang.c:360 bitbang_exchange(): bitbang_exchange
Debug: 360 81 bitbang.c:360 bitbang_exchange(): bitbang_exchange
Debug: 361 81 bitbang.c:360 bitbang_exchange(): bitbang_exchange
Debug: 362 82 bitbang.c:509 bitbang_swd_write_reg(): OK DP write reg 8 = 00000000
Debug: 363 82 bitbang.c:482 bitbang_swd_write_reg(): bitbang_swd_write_reg
Debug: 364 82 bitbang.c:360 bitbang_exchange(): bitbang_exchange
Debug: 365 82 bitbang.c:360 bitbang_exchange(): bitbang_exchange
Debug: 366 83 bitbang.c:360 bitbang_exchange(): bitbang_exchange
Debug: 367 83 bitbang.c:509 bitbang_swd_write_reg(): OK AP write reg 4 = e000ed00
Debug: 368 83 bitbang.c:360 bitbang_exchange(): bitbang_exchange
Debug: 369 83 bitbang.c:482 bitbang_swd_write_reg(): bitbang_swd_write_reg
Debug: 370 83 bitbang.c:360 bitbang_exchange(): bitbang_exchange
Debug: 371 84 bitbang.c:360 bitbang_exchange(): bitbang_exchange
Debug: 372 84 bitbang.c:360 bitbang_exchange(): bitbang_exchange
Debug: 373 84 bitbang.c:509 bitbang_swd_write_reg(): OK AP write reg 0 = a2000022
Debug: 374 84 bitbang.c:360 bitbang_exchange(): bitbang_exchange
Debug: 375 84 bitbang.c:423 bitbang_swd_read_reg(): bitbang_swd_read_reg
Debug: 376 85 bitbang.c:360 bitbang_exchange(): bitbang_exchange
Debug: 377 85 bitbang.c:360 bitbang_exchange(): bitbang_exchange
Debug: 378 85 bitbang.c:450 bitbang_swd_read_reg(): OK AP read reg C = 00000000
Debug: 379 85 bitbang.c:360 bitbang_exchange(): bitbang_exchange
Debug: 380 86 bitbang.c:423 bitbang_swd_read_reg(): bitbang_swd_read_reg
Debug: 381 86 bitbang.c:360 bitbang_exchange(): bitbang_exchange
Debug: 382 86 bitbang.c:360 bitbang_exchange(): bitbang_exchange
Debug: 383 86 bitbang.c:450 bitbang_swd_read_reg(): OK DP read reg C = 410fc241
Debug: 384 86 bitbang.c:534 bitbang_swd_run_queue(): bitbang_swd_run_queue
Debug: 385 86 bitbang.c:360 bitbang_exchange(): bitbang_exchange
Debug: 386 87 bitbang.c:541 bitbang_swd_run_queue(): SWD queue return value: 00
Debug: 387 87 target.c:2223 target_read_u32(): address: 0xe000ed00, value: 0x410fc241
Debug: 388 87 cortex_m.c:1917 cortex_m_examine(): Cortex-M4 r0p1 processor detected
Debug: 389 87 cortex_m.c:1918 cortex_m_examine(): cpuid: 0x410fc241
Debug: 390 87 bitbang.c:482 bitbang_swd_write_reg(): bitbang_swd_write_reg
Debug: 391 87 bitbang.c:360 bitbang_exchange(): bitbang_exchange
Debug: 392 87 bitbang.c:360 bitbang_exchange(): bitbang_exchange
Debug: 393 87 bitbang.c:360 bitbang_exchange(): bitbang_exchange
Debug: 394 88 bitbang.c:509 bitbang_swd_write_reg(): OK AP write reg 4 = e000ef40
Debug: 395 88 bitbang.c:360 bitbang_exchange(): bitbang_exchange
Debug: 396 88 bitbang.c:423 bitbang_swd_read_reg(): bitbang_swd_read_reg
Debug: 397 88 bitbang.c:360 bitbang_exchange(): bitbang_exchange
Debug: 398 88 bitbang.c:360 bitbang_exchange(): bitbang_exchange
Debug: 399 89 bitbang.c:450 bitbang_swd_read_reg(): OK AP read reg C = 410fc241
Debug: 400 89 bitbang.c:360 bitbang_exchange(): bitbang_exchange
Debug: 401 89 bitbang.c:423 bitbang_swd_read_reg(): bitbang_swd_read_reg
Debug: 402 89 bitbang.c:360 bitbang_exchange(): bitbang_exchange
Debug: 403 89 bitbang.c:360 bitbang_exchange(): bitbang_exchange
Debug: 404 90 bitbang.c:450 bitbang_swd_read_reg(): OK DP read reg C = 10110021
Debug: 405 90 bitbang.c:534 bitbang_swd_run_queue(): bitbang_swd_run_queue
Debug: 406 90 bitbang.c:360 bitbang_exchange(): bitbang_exchange
Debug: 407 90 bitbang.c:541 bitbang_swd_run_queue(): SWD queue return value: 00
Debug: 408 90 target.c:2223 target_read_u32(): address: 0xe000ef40, value: 0x10110021
Debug: 409 90 bitbang.c:482 bitbang_swd_write_reg(): bitbang_swd_write_reg
Debug: 410 90 bitbang.c:360 bitbang_exchange(): bitbang_exchange
Debug: 411 90 bitbang.c:360 bitbang_exchange(): bitbang_exchange
Debug: 412 91 bitbang.c:360 bitbang_exchange(): bitbang_exchange
Debug: 413 91 bitbang.c:509 bitbang_swd_write_reg(): OK AP write reg 4 = e000ef44
Debug: 414 91 bitbang.c:360 bitbang_exchange(): bitbang_exchange
Debug: 415 91 bitbang.c:423 bitbang_swd_read_reg(): bitbang_swd_read_reg
Debug: 416 91 bitbang.c:360 bitbang_exchange(): bitbang_exchange
Debug: 417 91 bitbang.c:360 bitbang_exchange(): bitbang_exchange
Debug: 418 92 bitbang.c:450 bitbang_swd_read_reg(): OK AP read reg C = 10110021
Debug: 419 92 bitbang.c:360 bitbang_exchange(): bitbang_exchange
Debug: 420 92 bitbang.c:423 bitbang_swd_read_reg(): bitbang_swd_read_reg
Debug: 421 92 bitbang.c:360 bitbang_exchange(): bitbang_exchange
Debug: 422 92 bitbang.c:360 bitbang_exchange(): bitbang_exchange
Debug: 423 93 bitbang.c:450 bitbang_swd_read_reg(): OK DP read reg C = 11000011
Debug: 424 93 bitbang.c:534 bitbang_swd_run_queue(): bitbang_swd_run_queue
Debug: 425 93 bitbang.c:360 bitbang_exchange(): bitbang_exchange
Debug: 426 94 bitbang.c:541 bitbang_swd_run_queue(): SWD queue return value: 00
Debug: 427 94 target.c:2223 target_read_u32(): address: 0xe000ef44, value: 0x11000011
Debug: 428 94 cortex_m.c:1926 cortex_m_examine(): Cortex-M4 floating point feature FPv4_SP found
Debug: 429 94 target.c:2311 target_write_u32(): address: 0xe000edfc, value: 0x01000000
Debug: 430 94 bitbang.c:482 bitbang_swd_write_reg(): bitbang_swd_write_reg
Debug: 431 94 bitbang.c:360 bitbang_exchange(): bitbang_exchange
Debug: 432 94 bitbang.c:360 bitbang_exchange(): bitbang_exchange
Debug: 433 94 bitbang.c:360 bitbang_exchange(): bitbang_exchange
Debug: 434 94 bitbang.c:509 bitbang_swd_write_reg(): OK AP write reg 4 = e000edfc
Debug: 435 94 bitbang.c:360 bitbang_exchange(): bitbang_exchange
Debug: 436 95 bitbang.c:482 bitbang_swd_write_reg(): bitbang_swd_write_reg
Debug: 437 95 bitbang.c:360 bitbang_exchange(): bitbang_exchange
Debug: 438 95 bitbang.c:360 bitbang_exchange(): bitbang_exchange
Debug: 439 95 bitbang.c:360 bitbang_exchange(): bitbang_exchange
Debug: 440 95 bitbang.c:509 bitbang_swd_write_reg(): OK AP write reg C = 01000000
Debug: 441 95 bitbang.c:360 bitbang_exchange(): bitbang_exchange
Debug: 442 96 bitbang.c:534 bitbang_swd_run_queue(): bitbang_swd_run_queue
Debug: 443 96 bitbang.c:360 bitbang_exchange(): bitbang_exchange
Debug: 444 96 bitbang.c:541 bitbang_swd_run_queue(): SWD queue return value: 00
Debug: 445 96 bitbang.c:482 bitbang_swd_write_reg(): bitbang_swd_write_reg
Debug: 446 96 bitbang.c:360 bitbang_exchange(): bitbang_exchange
Debug: 447 96 bitbang.c:360 bitbang_exchange(): bitbang_exchange
Debug: 448 96 bitbang.c:360 bitbang_exchange(): bitbang_exchange
Debug: 449 97 bitbang.c:509 bitbang_swd_write_reg(): OK AP write reg 4 = e0002000
Debug: 450 97 bitbang.c:360 bitbang_exchange(): bitbang_exchange
Debug: 451 97 bitbang.c:423 bitbang_swd_read_reg(): bitbang_swd_read_reg
Debug: 452 97 bitbang.c:360 bitbang_exchange(): bitbang_exchange
Debug: 453 97 bitbang.c:360 bitbang_exchange(): bitbang_exchange
Debug: 454 98 bitbang.c:450 bitbang_swd_read_reg(): OK AP read reg C = 11000011
Debug: 455 98 bitbang.c:360 bitbang_exchange(): bitbang_exchange
Debug: 456 98 bitbang.c:423 bitbang_swd_read_reg(): bitbang_swd_read_reg
Debug: 457 98 bitbang.c:360 bitbang_exchange(): bitbang_exchange
Debug: 458 98 bitbang.c:360 bitbang_exchange(): bitbang_exchange
Debug: 459 99 bitbang.c:450 bitbang_swd_read_reg(): OK DP read reg C = 00000261
Debug: 460 99 bitbang.c:534 bitbang_swd_run_queue(): bitbang_swd_run_queue
Debug: 461 99 bitbang.c:360 bitbang_exchange(): bitbang_exchange
Debug: 462 99 bitbang.c:541 bitbang_swd_run_queue(): SWD queue return value: 00
Debug: 463 99 target.c:2223 target_read_u32(): address: 0xe0002000, value: 0x00000261
Debug: 464 99 target.c:2311 target_write_u32(): address: 0xe0002008, value: 0x00000000
Debug: 465 99 bitbang.c:482 bitbang_swd_write_reg(): bitbang_swd_write_reg
Debug: 466 99 bitbang.c:360 bitbang_exchange(): bitbang_exchange
Debug: 467 99 bitbang.c:360 bitbang_exchange(): bitbang_exchange
Debug: 468 100 bitbang.c:360 bitbang_exchange(): bitbang_exchange
Debug: 469 100 bitbang.c:509 bitbang_swd_write_reg(): OK AP write reg 4 = e0002008
Debug: 470 100 bitbang.c:360 bitbang_exchange(): bitbang_exchange
Debug: 471 100 bitbang.c:482 bitbang_swd_write_reg(): bitbang_swd_write_reg
Debug: 472 100 bitbang.c:360 bitbang_exchange(): bitbang_exchange
Debug: 473 100 bitbang.c:360 bitbang_exchange(): bitbang_exchange
Debug: 474 101 bitbang.c:360 bitbang_exchange(): bitbang_exchange
Debug: 475 101 bitbang.c:509 bitbang_swd_write_reg(): OK AP write reg C = 00000000
Debug: 476 101 bitbang.c:360 bitbang_exchange(): bitbang_exchange
Debug: 477 101 bitbang.c:534 bitbang_swd_run_queue(): bitbang_swd_run_queue
Debug: 478 101 bitbang.c:360 bitbang_exchange(): bitbang_exchange
Debug: 479 101 bitbang.c:541 bitbang_swd_run_queue(): SWD queue return value: 00
Debug: 480 101 target.c:2311 target_write_u32(): address: 0xe000200c, value: 0x00000000
Debug: 481 101 bitbang.c:482 bitbang_swd_write_reg(): bitbang_swd_write_reg
Debug: 482 101 bitbang.c:360 bitbang_exchange(): bitbang_exchange
Debug: 483 101 bitbang.c:360 bitbang_exchange(): bitbang_exchange
Debug: 484 102 bitbang.c:360 bitbang_exchange(): bitbang_exchange
Debug: 485 102 bitbang.c:509 bitbang_swd_write_reg(): OK AP write reg 4 = e000200c
Debug: 486 102 bitbang.c:360 bitbang_exchange(): bitbang_exchange
Debug: 487 102 bitbang.c:482 bitbang_swd_write_reg(): bitbang_swd_write_reg
Debug: 488 102 bitbang.c:360 bitbang_exchange(): bitbang_exchange
Debug: 489 102 bitbang.c:360 bitbang_exchange(): bitbang_exchange
Debug: 490 102 bitbang.c:360 bitbang_exchange(): bitbang_exchange
Debug: 491 103 bitbang.c:509 bitbang_swd_write_reg(): OK AP write reg C = 00000000
Debug: 492 103 bitbang.c:360 bitbang_exchange(): bitbang_exchange
Debug: 493 103 bitbang.c:534 bitbang_swd_run_queue(): bitbang_swd_run_queue
Debug: 494 103 bitbang.c:360 bitbang_exchange(): bitbang_exchange
Debug: 495 103 bitbang.c:541 bitbang_swd_run_queue(): SWD queue return value: 00
Debug: 496 103 target.c:2311 target_write_u32(): address: 0xe0002010, value: 0x00000000
Debug: 497 103 bitbang.c:482 bitbang_swd_write_reg(): bitbang_swd_write_reg
Debug: 498 103 bitbang.c:360 bitbang_exchange(): bitbang_exchange
Debug: 499 103 bitbang.c:360 bitbang_exchange(): bitbang_exchange
Debug: 500 104 bitbang.c:360 bitbang_exchange(): bitbang_exchange
Debug: 501 104 bitbang.c:509 bitbang_swd_write_reg(): OK AP write reg 4 = e0002010
Debug: 502 104 bitbang.c:360 bitbang_exchange(): bitbang_exchange
Debug: 503 104 bitbang.c:482 bitbang_swd_write_reg(): bitbang_swd_write_reg
Debug: 504 104 bitbang.c:360 bitbang_exchange(): bitbang_exchange
Debug: 505 104 bitbang.c:360 bitbang_exchange(): bitbang_exchange
Debug: 506 105 bitbang.c:360 bitbang_exchange(): bitbang_exchange
Debug: 507 105 bitbang.c:509 bitbang_swd_write_reg(): OK AP write reg C = 00000000
Debug: 508 105 bitbang.c:360 bitbang_exchange(): bitbang_exchange
Debug: 509 105 bitbang.c:534 bitbang_swd_run_queue(): bitbang_swd_run_queue
Debug: 510 105 bitbang.c:360 bitbang_exchange(): bitbang_exchange
Debug: 511 105 bitbang.c:541 bitbang_swd_run_queue(): SWD queue return value: 00
Debug: 512 105 target.c:2311 target_write_u32(): address: 0xe0002014, value: 0x00000000
Debug: 513 105 bitbang.c:482 bitbang_swd_write_reg(): bitbang_swd_write_reg
Debug: 514 105 bitbang.c:360 bitbang_exchange(): bitbang_exchange
Debug: 515 105 bitbang.c:360 bitbang_exchange(): bitbang_exchange
Debug: 516 106 bitbang.c:360 bitbang_exchange(): bitbang_exchange
Debug: 517 106 bitbang.c:509 bitbang_swd_write_reg(): OK AP write reg 4 = e0002014
Debug: 518 106 bitbang.c:360 bitbang_exchange(): bitbang_exchange
Debug: 519 106 bitbang.c:482 bitbang_swd_write_reg(): bitbang_swd_write_reg
Debug: 520 106 bitbang.c:360 bitbang_exchange(): bitbang_exchange
Debug: 521 106 bitbang.c:360 bitbang_exchange(): bitbang_exchange
Debug: 522 107 bitbang.c:360 bitbang_exchange(): bitbang_exchange
Debug: 523 107 bitbang.c:509 bitbang_swd_write_reg(): OK AP write reg C = 00000000
Debug: 524 107 bitbang.c:360 bitbang_exchange(): bitbang_exchange
Debug: 525 107 bitbang.c:534 bitbang_swd_run_queue(): bitbang_swd_run_queue
Debug: 526 107 bitbang.c:360 bitbang_exchange(): bitbang_exchange
Debug: 527 107 bitbang.c:541 bitbang_swd_run_queue(): SWD queue return value: 00
Debug: 528 107 target.c:2311 target_write_u32(): address: 0xe0002018, value: 0x00000000
Debug: 529 107 bitbang.c:482 bitbang_swd_write_reg(): bitbang_swd_write_reg
Debug: 530 107 bitbang.c:360 bitbang_exchange(): bitbang_exchange
Debug: 531 107 bitbang.c:360 bitbang_exchange(): bitbang_exchange
Debug: 532 108 bitbang.c:360 bitbang_exchange(): bitbang_exchange
Debug: 533 108 bitbang.c:509 bitbang_swd_write_reg(): OK AP write reg 4 = e0002018
Debug: 534 108 bitbang.c:360 bitbang_exchange(): bitbang_exchange
Debug: 535 108 bitbang.c:482 bitbang_swd_write_reg(): bitbang_swd_write_reg
Debug: 536 108 bitbang.c:360 bitbang_exchange(): bitbang_exchange
Debug: 537 108 bitbang.c:360 bitbang_exchange(): bitbang_exchange
Debug: 538 109 bitbang.c:360 bitbang_exchange(): bitbang_exchange
Debug: 539 109 bitbang.c:509 bitbang_swd_write_reg(): OK AP write reg C = 00000000
Debug: 540 109 bitbang.c:360 bitbang_exchange(): bitbang_exchange
Debug: 541 109 bitbang.c:534 bitbang_swd_run_queue(): bitbang_swd_run_queue
Debug: 542 109 bitbang.c:360 bitbang_exchange(): bitbang_exchange
Debug: 543 109 bitbang.c:541 bitbang_swd_run_queue(): SWD queue return value: 00
Debug: 544 109 target.c:2311 target_write_u32(): address: 0xe000201c, value: 0x00000000
Debug: 545 109 bitbang.c:482 bitbang_swd_write_reg(): bitbang_swd_write_reg
Debug: 546 109 bitbang.c:360 bitbang_exchange(): bitbang_exchange
Debug: 547 109 bitbang.c:360 bitbang_exchange(): bitbang_exchange
Debug: 548 110 bitbang.c:360 bitbang_exchange(): bitbang_exchange
Debug: 549 110 bitbang.c:509 bitbang_swd_write_reg(): OK AP write reg 4 = e000201c
Debug: 550 110 bitbang.c:360 bitbang_exchange(): bitbang_exchange
Debug: 551 110 bitbang.c:482 bitbang_swd_write_reg(): bitbang_swd_write_reg
Debug: 552 110 bitbang.c:360 bitbang_exchange(): bitbang_exchange
Debug: 553 110 bitbang.c:360 bitbang_exchange(): bitbang_exchange
Debug: 554 111 bitbang.c:360 bitbang_exchange(): bitbang_exchange
Debug: 555 111 bitbang.c:509 bitbang_swd_write_reg(): OK AP write reg C = 00000000
Debug: 556 111 bitbang.c:360 bitbang_exchange(): bitbang_exchange
Debug: 557 111 bitbang.c:534 bitbang_swd_run_queue(): bitbang_swd_run_queue
Debug: 558 111 bitbang.c:360 bitbang_exchange(): bitbang_exchange
Debug: 559 111 bitbang.c:541 bitbang_swd_run_queue(): SWD queue return value: 00
Debug: 560 111 target.c:2311 target_write_u32(): address: 0xe0002020, value: 0x00000000
Debug: 561 111 bitbang.c:482 bitbang_swd_write_reg(): bitbang_swd_write_reg
Debug: 562 111 bitbang.c:360 bitbang_exchange(): bitbang_exchange
Debug: 563 111 bitbang.c:360 bitbang_exchange(): bitbang_exchange
Debug: 564 112 bitbang.c:360 bitbang_exchange(): bitbang_exchange
Debug: 565 112 bitbang.c:509 bitbang_swd_write_reg(): OK AP write reg 4 = e0002020
Debug: 566 112 bitbang.c:360 bitbang_exchange(): bitbang_exchange
Debug: 567 112 bitbang.c:482 bitbang_swd_write_reg(): bitbang_swd_write_reg
Debug: 568 112 bitbang.c:360 bitbang_exchange(): bitbang_exchange
Debug: 569 112 bitbang.c:360 bitbang_exchange(): bitbang_exchange
Debug: 570 113 bitbang.c:360 bitbang_exchange(): bitbang_exchange
Debug: 571 113 bitbang.c:509 bitbang_swd_write_reg(): OK AP write reg C = 00000000
Debug: 572 113 bitbang.c:360 bitbang_exchange(): bitbang_exchange
Debug: 573 113 bitbang.c:534 bitbang_swd_run_queue(): bitbang_swd_run_queue
Debug: 574 113 bitbang.c:360 bitbang_exchange(): bitbang_exchange
Debug: 575 113 bitbang.c:541 bitbang_swd_run_queue(): SWD queue return value: 00
Debug: 576 113 target.c:2311 target_write_u32(): address: 0xe0002024, value: 0x00000000
Debug: 577 113 bitbang.c:482 bitbang_swd_write_reg(): bitbang_swd_write_reg
Debug: 578 113 bitbang.c:360 bitbang_exchange(): bitbang_exchange
Debug: 579 113 bitbang.c:360 bitbang_exchange(): bitbang_exchange
Debug: 580 114 bitbang.c:360 bitbang_exchange(): bitbang_exchange
Debug: 581 114 bitbang.c:509 bitbang_swd_write_reg(): OK AP write reg 4 = e0002024
Debug: 582 114 bitbang.c:360 bitbang_exchange(): bitbang_exchange
Debug: 583 114 bitbang.c:482 bitbang_swd_write_reg(): bitbang_swd_write_reg
Debug: 584 114 bitbang.c:360 bitbang_exchange(): bitbang_exchange
Debug: 585 114 bitbang.c:360 bitbang_exchange(): bitbang_exchange
Debug: 586 115 bitbang.c:360 bitbang_exchange(): bitbang_exchange
Debug: 587 115 bitbang.c:509 bitbang_swd_write_reg(): OK AP write reg C = 00000000
Debug: 588 115 bitbang.c:360 bitbang_exchange(): bitbang_exchange
Debug: 589 115 bitbang.c:534 bitbang_swd_run_queue(): bitbang_swd_run_queue
Debug: 590 115 bitbang.c:360 bitbang_exchange(): bitbang_exchange
Debug: 591 115 bitbang.c:541 bitbang_swd_run_queue(): SWD queue return value: 00
Debug: 592 115 cortex_m.c:1992 cortex_m_examine(): FPB fpcr 0x261, numcode 6, numlit 2
Debug: 593 115 bitbang.c:482 bitbang_swd_write_reg(): bitbang_swd_write_reg
Debug: 594 115 bitbang.c:360 bitbang_exchange(): bitbang_exchange
Debug: 595 115 bitbang.c:360 bitbang_exchange(): bitbang_exchange
Debug: 596 116 bitbang.c:360 bitbang_exchange(): bitbang_exchange
Debug: 597 116 bitbang.c:509 bitbang_swd_write_reg(): OK AP write reg 4 = e0001000
Debug: 598 116 bitbang.c:360 bitbang_exchange(): bitbang_exchange
Debug: 599 116 bitbang.c:423 bitbang_swd_read_reg(): bitbang_swd_read_reg
Debug: 600 116 bitbang.c:360 bitbang_exchange(): bitbang_exchange
Debug: 601 116 bitbang.c:360 bitbang_exchange(): bitbang_exchange
Debug: 602 117 bitbang.c:450 bitbang_swd_read_reg(): OK AP read reg C = 00000261
Debug: 603 117 bitbang.c:360 bitbang_exchange(): bitbang_exchange
Debug: 604 117 bitbang.c:423 bitbang_swd_read_reg(): bitbang_swd_read_reg
Debug: 605 117 bitbang.c:360 bitbang_exchange(): bitbang_exchange
Debug: 606 118 bitbang.c:360 bitbang_exchange(): bitbang_exchange
Debug: 607 118 bitbang.c:450 bitbang_swd_read_reg(): OK DP read reg C = 40000000
Debug: 608 118 bitbang.c:534 bitbang_swd_run_queue(): bitbang_swd_run_queue
Debug: 609 118 bitbang.c:360 bitbang_exchange(): bitbang_exchange
Debug: 610 118 bitbang.c:541 bitbang_swd_run_queue(): SWD queue return value: 00
Debug: 611 118 target.c:2223 target_read_u32(): address: 0xe0001000, value: 0x40000000
Debug: 612 119 target.c:2311 target_write_u32(): address: 0xe0001028, value: 0x00000000
Debug: 613 119 bitbang.c:482 bitbang_swd_write_reg(): bitbang_swd_write_reg
Debug: 614 119 bitbang.c:360 bitbang_exchange(): bitbang_exchange
Debug: 615 119 bitbang.c:360 bitbang_exchange(): bitbang_exchange
Debug: 616 119 bitbang.c:360 bitbang_exchange(): bitbang_exchange
Debug: 617 119 bitbang.c:509 bitbang_swd_write_reg(): OK AP write reg 4 = e0001028
Debug: 618 119 bitbang.c:360 bitbang_exchange(): bitbang_exchange
Debug: 619 119 bitbang.c:482 bitbang_swd_write_reg(): bitbang_swd_write_reg
Debug: 620 119 bitbang.c:360 bitbang_exchange(): bitbang_exchange
Debug: 621 120 bitbang.c:360 bitbang_exchange(): bitbang_exchange
Debug: 622 120 bitbang.c:360 bitbang_exchange(): bitbang_exchange
Debug: 623 120 bitbang.c:509 bitbang_swd_write_reg(): OK AP write reg C = 00000000
Debug: 624 120 bitbang.c:360 bitbang_exchange(): bitbang_exchange
Debug: 625 120 bitbang.c:534 bitbang_swd_run_queue(): bitbang_swd_run_queue
Debug: 626 120 bitbang.c:360 bitbang_exchange(): bitbang_exchange
Debug: 627 120 bitbang.c:541 bitbang_swd_run_queue(): SWD queue return value: 00
Debug: 628 120 target.c:2311 target_write_u32(): address: 0xe0001038, value: 0x00000000
Debug: 629 120 bitbang.c:482 bitbang_swd_write_reg(): bitbang_swd_write_reg
Debug: 630 120 bitbang.c:360 bitbang_exchange(): bitbang_exchange
Debug: 631 121 bitbang.c:360 bitbang_exchange(): bitbang_exchange
Debug: 632 121 bitbang.c:360 bitbang_exchange(): bitbang_exchange
Debug: 633 121 bitbang.c:509 bitbang_swd_write_reg(): OK AP write reg 4 = e0001038
Debug: 634 121 bitbang.c:360 bitbang_exchange(): bitbang_exchange
Debug: 635 121 bitbang.c:482 bitbang_swd_write_reg(): bitbang_swd_write_reg
Debug: 636 121 bitbang.c:360 bitbang_exchange(): bitbang_exchange
Debug: 637 122 bitbang.c:360 bitbang_exchange(): bitbang_exchange
Debug: 638 122 bitbang.c:360 bitbang_exchange(): bitbang_exchange
Debug: 639 122 bitbang.c:509 bitbang_swd_write_reg(): OK AP write reg C = 00000000
Debug: 640 122 bitbang.c:360 bitbang_exchange(): bitbang_exchange
Debug: 641 122 bitbang.c:534 bitbang_swd_run_queue(): bitbang_swd_run_queue
Debug: 642 122 bitbang.c:360 bitbang_exchange(): bitbang_exchange
Debug: 643 122 bitbang.c:541 bitbang_swd_run_queue(): SWD queue return value: 00
Debug: 644 122 target.c:2311 target_write_u32(): address: 0xe0001048, value: 0x00000000
Debug: 645 123 bitbang.c:482 bitbang_swd_write_reg(): bitbang_swd_write_reg
Debug: 646 123 bitbang.c:360 bitbang_exchange(): bitbang_exchange
Debug: 647 123 bitbang.c:360 bitbang_exchange(): bitbang_exchange
Debug: 648 123 bitbang.c:360 bitbang_exchange(): bitbang_exchange
Debug: 649 123 bitbang.c:509 bitbang_swd_write_reg(): OK AP write reg 4 = e0001048
Debug: 650 123 bitbang.c:360 bitbang_exchange(): bitbang_exchange
Debug: 651 123 bitbang.c:482 bitbang_swd_write_reg(): bitbang_swd_write_reg
Debug: 652 124 bitbang.c:360 bitbang_exchange(): bitbang_exchange
Debug: 653 124 bitbang.c:360 bitbang_exchange(): bitbang_exchange
Debug: 654 124 bitbang.c:360 bitbang_exchange(): bitbang_exchange
Debug: 655 124 bitbang.c:509 bitbang_swd_write_reg(): OK AP write reg C = 00000000
Debug: 656 124 bitbang.c:360 bitbang_exchange(): bitbang_exchange
Debug: 657 124 bitbang.c:534 bitbang_swd_run_queue(): bitbang_swd_run_queue
Debug: 658 124 bitbang.c:360 bitbang_exchange(): bitbang_exchange
Debug: 659 124 bitbang.c:541 bitbang_swd_run_queue(): SWD queue return value: 00
Debug: 660 124 target.c:2311 target_write_u32(): address: 0xe0001058, value: 0x00000000
Debug: 661 124 bitbang.c:482 bitbang_swd_write_reg(): bitbang_swd_write_reg
Debug: 662 124 bitbang.c:360 bitbang_exchange(): bitbang_exchange
Debug: 663 125 bitbang.c:360 bitbang_exchange(): bitbang_exchange
Debug: 664 125 bitbang.c:360 bitbang_exchange(): bitbang_exchange
Debug: 665 125 bitbang.c:509 bitbang_swd_write_reg(): OK AP write reg 4 = e0001058
Debug: 666 125 bitbang.c:360 bitbang_exchange(): bitbang_exchange
Debug: 667 125 bitbang.c:482 bitbang_swd_write_reg(): bitbang_swd_write_reg
Debug: 668 125 bitbang.c:360 bitbang_exchange(): bitbang_exchange
Debug: 669 125 bitbang.c:360 bitbang_exchange(): bitbang_exchange
Debug: 670 126 bitbang.c:360 bitbang_exchange(): bitbang_exchange
Debug: 671 126 bitbang.c:509 bitbang_swd_write_reg(): OK AP write reg C = 00000000
Debug: 672 126 bitbang.c:360 bitbang_exchange(): bitbang_exchange
Debug: 673 126 bitbang.c:534 bitbang_swd_run_queue(): bitbang_swd_run_queue
Debug: 674 126 bitbang.c:360 bitbang_exchange(): bitbang_exchange
Debug: 675 126 bitbang.c:541 bitbang_swd_run_queue(): SWD queue return value: 00
Debug: 676 126 cortex_m.c:1853 cortex_m_dwt_setup(): DWT dwtcr 0x40000000, comp 4, watch/trigger
Info : 677 126 cortex_m.c:2002 cortex_m_examine(): kx.cpu: hardware has 6 breakpoints, 4 watchpoints
Debug: 678 126 target.c:1499 target_call_event_callbacks(): target event 22 (examine-end)
Debug: 679 126 target.c:4253 target_handle_event(): target: (0) kx.cpu (cortex_m) event: 22 (examine-end) action: 
	kinetis mdm check_security

Debug: 680 126 command.c:145 script_debug(): command - ocd_command ocd_command type ocd_kinetis mdm check_security
Debug: 681 127 command.c:145 script_debug(): command - ocd_kinetis ocd_kinetis mdm check_security
Debug: 682 127 bitbang.c:482 bitbang_swd_write_reg(): bitbang_swd_write_reg
Debug: 683 127 bitbang.c:360 bitbang_exchange(): bitbang_exchange
Debug: 684 127 bitbang.c:360 bitbang_exchange(): bitbang_exchange
Debug: 685 127 bitbang.c:360 bitbang_exchange(): bitbang_exchange
Debug: 686 127 bitbang.c:509 bitbang_swd_write_reg(): OK AP write reg 0 = a2000002
Debug: 687 127 bitbang.c:360 bitbang_exchange(): bitbang_exchange
Debug: 688 127 bitbang.c:482 bitbang_swd_write_reg(): bitbang_swd_write_reg
Debug: 689 127 bitbang.c:360 bitbang_exchange(): bitbang_exchange
Debug: 690 128 bitbang.c:360 bitbang_exchange(): bitbang_exchange
Debug: 691 128 bitbang.c:360 bitbang_exchange(): bitbang_exchange
Debug: 692 128 bitbang.c:509 bitbang_swd_write_reg(): OK AP write reg 4 = e000edf0
Debug: 693 128 bitbang.c:360 bitbang_exchange(): bitbang_exchange
Debug: 694 128 bitbang.c:482 bitbang_swd_write_reg(): bitbang_swd_write_reg
Debug: 695 128 bitbang.c:360 bitbang_exchange(): bitbang_exchange
Debug: 696 128 bitbang.c:360 bitbang_exchange(): bitbang_exchange
Debug: 697 128 bitbang.c:360 bitbang_exchange(): bitbang_exchange
Debug: 698 129 bitbang.c:509 bitbang_swd_write_reg(): OK DP write reg 8 = 00000010
Debug: 699 129 bitbang.c:423 bitbang_swd_read_reg(): bitbang_swd_read_reg
Debug: 700 129 bitbang.c:360 bitbang_exchange(): bitbang_exchange
Debug: 701 129 bitbang.c:360 bitbang_exchange(): bitbang_exchange
Debug: 702 130 bitbang.c:450 bitbang_swd_read_reg(): OK AP read reg 0 = 40000000
Debug: 703 130 bitbang.c:360 bitbang_exchange(): bitbang_exchange
Debug: 704 130 bitbang.c:423 bitbang_swd_read_reg(): bitbang_swd_read_reg
Debug: 705 130 bitbang.c:360 bitbang_exchange(): bitbang_exchange
Debug: 706 130 bitbang.c:360 bitbang_exchange(): bitbang_exchange
Debug: 707 131 bitbang.c:450 bitbang_swd_read_reg(): OK DP read reg C = 00030003
Debug: 708 131 bitbang.c:534 bitbang_swd_run_queue(): bitbang_swd_run_queue
Debug: 709 131 bitbang.c:360 bitbang_exchange(): bitbang_exchange
Debug: 710 131 bitbang.c:541 bitbang_swd_run_queue(): SWD queue return value: 00
Debug: 712 131 bitbang.c:482 bitbang_swd_write_reg(): bitbang_swd_write_reg
Debug: 713 131 bitbang.c:360 bitbang_exchange(): bitbang_exchange
Debug: 714 131 bitbang.c:360 bitbang_exchange(): bitbang_exchange
Debug: 715 131 bitbang.c:360 bitbang_exchange(): bitbang_exchange
Debug: 716 131 bitbang.c:509 bitbang_swd_write_reg(): OK DP write reg 8 = 010000f0
Debug: 717 131 bitbang.c:423 bitbang_swd_read_reg(): bitbang_swd_read_reg
Debug: 718 131 bitbang.c:360 bitbang_exchange(): bitbang_exchange
Debug: 719 131 bitbang.c:360 bitbang_exchange(): bitbang_exchange
Debug: 720 132 bitbang.c:450 bitbang_swd_read_reg(): OK AP read reg C = 00030003
Debug: 721 132 bitbang.c:360 bitbang_exchange(): bitbang_exchange
Debug: 722 132 bitbang.c:423 bitbang_swd_read_reg(): bitbang_swd_read_reg
Debug: 723 132 bitbang.c:360 bitbang_exchange(): bitbang_exchange
Debug: 724 133 bitbang.c:360 bitbang_exchange(): bitbang_exchange
Debug: 725 133 bitbang.c:450 bitbang_swd_read_reg(): OK DP read reg C = 001c0000
Debug: 726 133 bitbang.c:534 bitbang_swd_run_queue(): bitbang_swd_run_queue
Debug: 727 133 bitbang.c:360 bitbang_exchange(): bitbang_exchange
Debug: 728 133 bitbang.c:541 bitbang_swd_run_queue(): SWD queue return value: 00
Debug: 729 133 kinetis.c:277 kinetis_mdm_read_register(): MDM_REG[0xfc]: 001C0000
Debug: 730 133 bitbang.c:482 bitbang_swd_write_reg(): bitbang_swd_write_reg
Debug: 731 133 bitbang.c:360 bitbang_exchange(): bitbang_exchange
Debug: 732 134 bitbang.c:360 bitbang_exchange(): bitbang_exchange
Debug: 733 134 bitbang.c:360 bitbang_exchange(): bitbang_exchange
Debug: 734 134 bitbang.c:509 bitbang_swd_write_reg(): OK DP write reg 8 = 01000000
Debug: 735 134 bitbang.c:423 bitbang_swd_read_reg(): bitbang_swd_read_reg
Debug: 736 134 bitbang.c:360 bitbang_exchange(): bitbang_exchange
Debug: 737 134 bitbang.c:360 bitbang_exchange(): bitbang_exchange
Debug: 738 135 bitbang.c:450 bitbang_swd_read_reg(): OK AP read reg 0 = 001c0000
Debug: 739 135 bitbang.c:360 bitbang_exchange(): bitbang_exchange
Debug: 740 135 bitbang.c:423 bitbang_swd_read_reg(): bitbang_swd_read_reg
Debug: 741 135 bitbang.c:360 bitbang_exchange(): bitbang_exchange
Debug: 742 135 bitbang.c:360 bitbang_exchange(): bitbang_exchange
Debug: 743 136 bitbang.c:450 bitbang_swd_read_reg(): OK DP read reg C = 0001003b
Debug: 744 136 bitbang.c:534 bitbang_swd_run_queue(): bitbang_swd_run_queue
Debug: 745 136 bitbang.c:360 bitbang_exchange(): bitbang_exchange
Debug: 746 136 bitbang.c:541 bitbang_swd_run_queue(): SWD queue return value: 00
Debug: 747 136 kinetis.c:277 kinetis_mdm_read_register(): MDM_REG[0x00]: 0001003B
Debug: 748 136 bitbang.c:423 bitbang_swd_read_reg(): bitbang_swd_read_reg
Debug: 749 136 bitbang.c:360 bitbang_exchange(): bitbang_exchange
Debug: 750 136 bitbang.c:360 bitbang_exchange(): bitbang_exchange
Debug: 751 137 bitbang.c:450 bitbang_swd_read_reg(): OK AP read reg 0 = 0001003b
Debug: 752 137 bitbang.c:360 bitbang_exchange(): bitbang_exchange
Debug: 753 137 bitbang.c:423 bitbang_swd_read_reg(): bitbang_swd_read_reg
Debug: 754 137 bitbang.c:360 bitbang_exchange(): bitbang_exchange
Debug: 755 137 bitbang.c:360 bitbang_exchange(): bitbang_exchange
Debug: 756 138 bitbang.c:450 bitbang_swd_read_reg(): OK DP read reg C = 0001003b
Debug: 757 138 bitbang.c:534 bitbang_swd_run_queue(): bitbang_swd_run_queue
Debug: 758 138 bitbang.c:360 bitbang_exchange(): bitbang_exchange
Debug: 759 138 bitbang.c:541 bitbang_swd_run_queue(): SWD queue return value: 00
Debug: 760 138 kinetis.c:277 kinetis_mdm_read_register(): MDM_REG[0x00]: 0001003B
Info : 761 138 kinetis.c:479 kinetis_check_flash_security_status(): MDM: Chip is unsecured. Continuing.
Debug: 762 138 command.c:145 script_debug(): command - ocd_command ocd_command type ocd_flash init
Debug: 763 138 command.c:145 script_debug(): command - ocd_flash ocd_flash init
Debug: 764 138 bitbang.c:482 bitbang_swd_write_reg(): bitbang_swd_write_reg
Debug: 765 138 bitbang.c:360 bitbang_exchange(): bitbang_exchange
Debug: 766 139 bitbang.c:360 bitbang_exchange(): bitbang_exchange
Debug: 767 139 bitbang.c:360 bitbang_exchange(): bitbang_exchange
Debug: 768 139 bitbang.c:509 bitbang_swd_write_reg(): OK DP write reg 8 = 00000000
Debug: 769 139 bitbang.c:482 bitbang_swd_write_reg(): bitbang_swd_write_reg
Debug: 770 139 bitbang.c:360 bitbang_exchange(): bitbang_exchange
Debug: 771 139 bitbang.c:360 bitbang_exchange(): bitbang_exchange
Debug: 772 139 bitbang.c:360 bitbang_exchange(): bitbang_exchange
Debug: 773 140 bitbang.c:509 bitbang_swd_write_reg(): OK AP write reg 0 = a2000002
Debug: 774 140 bitbang.c:360 bitbang_exchange(): bitbang_exchange
Debug: 775 140 bitbang.c:482 bitbang_swd_write_reg(): bitbang_swd_write_reg
Debug: 776 140 bitbang.c:360 bitbang_exchange(): bitbang_exchange
Debug: 777 140 bitbang.c:360 bitbang_exchange(): bitbang_exchange
Debug: 778 140 bitbang.c:360 bitbang_exchange(): bitbang_exchange
Debug: 779 140 bitbang.c:509 bitbang_swd_write_reg(): OK AP write reg 4 = e000edf0
Debug: 780 140 bitbang.c:360 bitbang_exchange(): bitbang_exchange
Debug: 781 140 bitbang.c:482 bitbang_swd_write_reg(): bitbang_swd_write_reg
Debug: 782 140 bitbang.c:360 bitbang_exchange(): bitbang_exchange
Debug: 783 141 bitbang.c:360 bitbang_exchange(): bitbang_exchange
Debug: 784 141 bitbang.c:360 bitbang_exchange(): bitbang_exchange
Debug: 785 141 bitbang.c:509 bitbang_swd_write_reg(): OK DP write reg 8 = 00000010
Debug: 786 141 bitbang.c:423 bitbang_swd_read_reg(): bitbang_swd_read_reg
Debug: 787 141 bitbang.c:360 bitbang_exchange(): bitbang_exchange
Debug: 788 141 bitbang.c:360 bitbang_exchange(): bitbang_exchange
Debug: 789 142 bitbang.c:450 bitbang_swd_read_reg(): OK AP read reg 0 = 0001003b
Debug: 790 142 bitbang.c:360 bitbang_exchange(): bitbang_exchange
Debug: 791 142 bitbang.c:423 bitbang_swd_read_reg(): bitbang_swd_read_reg
Debug: 792 142 bitbang.c:360 bitbang_exchange(): bitbang_exchange
Debug: 793 142 bitbang.c:360 bitbang_exchange(): bitbang_exchange
Debug: 794 143 bitbang.c:450 bitbang_swd_read_reg(): OK DP read reg C = 00030003
Debug: 795 143 bitbang.c:534 bitbang_swd_run_queue(): bitbang_swd_run_queue
Debug: 796 143 bitbang.c:360 bitbang_exchange(): bitbang_exchange
Debug: 797 143 bitbang.c:541 bitbang_swd_run_queue(): SWD queue return value: 00
Debug: 799 143 tcl.c:1068 handle_flash_init_command(): Initializing flash devices...
Debug: 800 143 command.c:366 register_command_handler(): registering 'ocd_flash'...
Debug: 801 143 command.c:366 register_command_handler(): registering 'ocd_flash'...
Debug: 802 143 command.c:366 register_command_handler(): registering 'ocd_flash'...
Debug: 803 143 command.c:366 register_command_handler(): registering 'ocd_flash'...
Debug: 804 143 command.c:366 register_command_handler(): registering 'ocd_flash'...
Debug: 805 143 command.c:366 register_command_handler(): registering 'ocd_flash'...
Debug: 806 143 command.c:366 register_command_handler(): registering 'ocd_flash'...
Debug: 807 143 command.c:366 register_command_handler(): registering 'ocd_flash'...
Debug: 808 144 command.c:366 register_command_handler(): registering 'ocd_flash'...
Debug: 809 144 command.c:366 register_command_handler(): registering 'ocd_flash'...
Debug: 810 144 command.c:366 register_command_handler(): registering 'ocd_flash'...
Debug: 811 144 command.c:366 register_command_handler(): registering 'ocd_flash'...
Debug: 812 144 command.c:366 register_command_handler(): registering 'ocd_flash'...
Debug: 813 144 command.c:366 register_command_handler(): registering 'ocd_flash'...
Debug: 814 144 command.c:145 script_debug(): command - ocd_command ocd_command type ocd_mflash init
Debug: 815 144 command.c:145 script_debug(): command - ocd_mflash ocd_mflash init
Debug: 816 144 bitbang.c:423 bitbang_swd_read_reg(): bitbang_swd_read_reg
Debug: 817 144 bitbang.c:360 bitbang_exchange(): bitbang_exchange
Debug: 818 144 bitbang.c:360 bitbang_exchange(): bitbang_exchange
Debug: 819 145 bitbang.c:450 bitbang_swd_read_reg(): OK AP read reg 0 = 00030003
Debug: 820 145 bitbang.c:360 bitbang_exchange(): bitbang_exchange
Debug: 821 145 bitbang.c:423 bitbang_swd_read_reg(): bitbang_swd_read_reg
Debug: 822 145 bitbang.c:360 bitbang_exchange(): bitbang_exchange
Debug: 823 145 bitbang.c:360 bitbang_exchange(): bitbang_exchange
Debug: 824 146 bitbang.c:450 bitbang_swd_read_reg(): OK DP read reg C = 00030003
Debug: 825 146 bitbang.c:534 bitbang_swd_run_queue(): bitbang_swd_run_queue
Debug: 826 146 bitbang.c:360 bitbang_exchange(): bitbang_exchange
Debug: 827 146 bitbang.c:541 bitbang_swd_run_queue(): SWD queue return value: 00
Debug: 829 146 mflash.c:1379 handle_mflash_init_command(): Initializing mflash devices...
Debug: 830 146 command.c:145 script_debug(): command - ocd_command ocd_command type ocd_nand init
Debug: 831 146 command.c:145 script_debug(): command - ocd_nand ocd_nand init
Debug: 832 146 bitbang.c:423 bitbang_swd_read_reg(): bitbang_swd_read_reg
Debug: 833 146 bitbang.c:360 bitbang_exchange(): bitbang_exchange
Debug: 834 147 bitbang.c:360 bitbang_exchange(): bitbang_exchange
Debug: 835 147 bitbang.c:450 bitbang_swd_read_reg(): OK AP read reg 0 = 00030003
Debug: 836 147 bitbang.c:360 bitbang_exchange(): bitbang_exchange
Debug: 837 147 bitbang.c:423 bitbang_swd_read_reg(): bitbang_swd_read_reg
Debug: 838 147 bitbang.c:360 bitbang_exchange(): bitbang_exchange
Debug: 839 148 bitbang.c:360 bitbang_exchange(): bitbang_exchange
Debug: 840 148 bitbang.c:450 bitbang_swd_read_reg(): OK DP read reg C = 00030003
Debug: 841 148 bitbang.c:534 bitbang_swd_run_queue(): bitbang_swd_run_queue
Debug: 842 148 bitbang.c:360 bitbang_exchange(): bitbang_exchange
Debug: 843 148 bitbang.c:541 bitbang_swd_run_queue(): SWD queue return value: 00
Debug: 845 148 tcl.c:497 handle_nand_init_command(): Initializing NAND devices...
Debug: 846 148 command.c:145 script_debug(): command - ocd_command ocd_command type ocd_pld init
Debug: 847 149 command.c:145 script_debug(): command - ocd_pld ocd_pld init
Debug: 848 149 bitbang.c:423 bitbang_swd_read_reg(): bitbang_swd_read_reg
Debug: 849 149 bitbang.c:360 bitbang_exchange(): bitbang_exchange
Debug: 850 149 bitbang.c:360 bitbang_exchange(): bitbang_exchange
Debug: 851 149 bitbang.c:450 bitbang_swd_read_reg(): OK AP read reg 0 = 00030003
Debug: 852 149 bitbang.c:360 bitbang_exchange(): bitbang_exchange
Debug: 853 150 bitbang.c:423 bitbang_swd_read_reg(): bitbang_swd_read_reg
Debug: 854 150 bitbang.c:360 bitbang_exchange(): bitbang_exchange
Debug: 855 150 bitbang.c:360 bitbang_exchange(): bitbang_exchange
Debug: 856 150 bitbang.c:450 bitbang_swd_read_reg(): OK DP read reg C = 00030003
Debug: 857 150 bitbang.c:534 bitbang_swd_run_queue(): bitbang_swd_run_queue
Debug: 858 150 bitbang.c:360 bitbang_exchange(): bitbang_exchange
Debug: 859 150 bitbang.c:541 bitbang_swd_run_queue(): SWD queue return value: 00
Debug: 861 151 pld.c:207 handle_pld_init_command(): Initializing PLDs...
Debug: 862 251 bitbang.c:423 bitbang_swd_read_reg(): bitbang_swd_read_reg
Debug: 863 251 bitbang.c:360 bitbang_exchange(): bitbang_exchange
Debug: 864 251 bitbang.c:360 bitbang_exchange(): bitbang_exchange
Debug: 865 252 bitbang.c:450 bitbang_swd_read_reg(): OK AP read reg 0 = 00030003
Debug: 866 252 bitbang.c:360 bitbang_exchange(): bitbang_exchange
Debug: 867 252 bitbang.c:423 bitbang_swd_read_reg(): bitbang_swd_read_reg
Debug: 868 252 bitbang.c:360 bitbang_exchange(): bitbang_exchange
Debug: 869 252 bitbang.c:360 bitbang_exchange(): bitbang_exchange
Debug: 870 253 bitbang.c:450 bitbang_swd_read_reg(): OK DP read reg C = 00030003
Debug: 871 253 bitbang.c:534 bitbang_swd_run_queue(): bitbang_swd_run_queue
Debug: 872 253 bitbang.c:360 bitbang_exchange(): bitbang_exchange
Debug: 873 253 bitbang.c:541 bitbang_swd_run_queue(): SWD queue return value: 00
Debug: 874 353 bitbang.c:423 bitbang_swd_read_reg(): bitbang_swd_read_reg
Debug: 875 353 bitbang.c:360 bitbang_exchange(): bitbang_exchange
Debug: 876 353 bitbang.c:360 bitbang_exchange(): bitbang_exchange
Debug: 877 354 bitbang.c:450 bitbang_swd_read_reg(): OK AP read reg 0 = 00030003
Debug: 878 354 bitbang.c:360 bitbang_exchange(): bitbang_exchange
Debug: 879 354 bitbang.c:423 bitbang_swd_read_reg(): bitbang_swd_read_reg
Debug: 880 354 bitbang.c:360 bitbang_exchange(): bitbang_exchange
Debug: 881 354 bitbang.c:360 bitbang_exchange(): bitbang_exchange
Debug: 882 355 bitbang.c:450 bitbang_swd_read_reg(): OK DP read reg C = 00030003
Debug: 883 355 bitbang.c:534 bitbang_swd_run_queue(): bitbang_swd_run_queue
Debug: 884 355 bitbang.c:360 bitbang_exchange(): bitbang_exchange
Debug: 885 355 bitbang.c:541 bitbang_swd_run_queue(): SWD queue return value: 00
Debug: 886 455 bitbang.c:423 bitbang_swd_read_reg(): bitbang_swd_read_reg
Debug: 887 455 bitbang.c:360 bitbang_exchange(): bitbang_exchange
Debug: 888 456 bitbang.c:360 bitbang_exchange(): bitbang_exchange
Debug: 889 456 bitbang.c:450 bitbang_swd_read_reg(): OK AP read reg 0 = 00030003
Debug: 890 456 bitbang.c:360 bitbang_exchange(): bitbang_exchange
Debug: 891 456 bitbang.c:423 bitbang_swd_read_reg(): bitbang_swd_read_reg
Debug: 892 456 bitbang.c:360 bitbang_exchange(): bitbang_exchange
Debug: 893 457 bitbang.c:360 bitbang_exchange(): bitbang_exchange
Debug: 894 457 bitbang.c:450 bitbang_swd_read_reg(): OK DP read reg C = 00030003
Debug: 895 457 bitbang.c:534 bitbang_swd_run_queue(): bitbang_swd_run_queue
Debug: 896 457 bitbang.c:360 bitbang_exchange(): bitbang_exchange
Debug: 897 457 bitbang.c:541 bitbang_swd_run_queue(): SWD queue return value: 00
Debug: 898 558 bitbang.c:423 bitbang_swd_read_reg(): bitbang_swd_read_reg
Debug: 899 558 bitbang.c:360 bitbang_exchange(): bitbang_exchange
Debug: 900 558 bitbang.c:360 bitbang_exchange(): bitbang_exchange
Debug: 901 558 bitbang.c:450 bitbang_swd_read_reg(): OK AP read reg 0 = 00030003
Debug: 902 558 bitbang.c:360 bitbang_exchange(): bitbang_exchange
Debug: 903 559 bitbang.c:423 bitbang_swd_read_reg(): bitbang_swd_read_reg
Debug: 904 559 bitbang.c:360 bitbang_exchange(): bitbang_exchange
Debug: 905 559 bitbang.c:360 bitbang_exchange(): bitbang_exchange
Debug: 906 559 bitbang.c:450 bitbang_swd_read_reg(): OK DP read reg C = 00030003
Debug: 907 559 bitbang.c:534 bitbang_swd_run_queue(): bitbang_swd_run_queue
Debug: 908 559 bitbang.c:360 bitbang_exchange(): bitbang_exchange
Debug: 909 560 bitbang.c:541 bitbang_swd_run_queue(): SWD queue return value: 00
Debug: 910 660 bitbang.c:423 bitbang_swd_read_reg(): bitbang_swd_read_reg
Debug: 911 660 bitbang.c:360 bitbang_exchange(): bitbang_exchange
Debug: 912 660 bitbang.c:360 bitbang_exchange(): bitbang_exchange
Debug: 913 661 bitbang.c:450 bitbang_swd_read_reg(): OK AP read reg 0 = 00030003
Debug: 914 661 bitbang.c:360 bitbang_exchange(): bitbang_exchange
Debug: 915 661 bitbang.c:423 bitbang_swd_read_reg(): bitbang_swd_read_reg
Debug: 916 661 bitbang.c:360 bitbang_exchange(): bitbang_exchange
Debug: 917 661 bitbang.c:360 bitbang_exchange(): bitbang_exchange
Debug: 918 662 bitbang.c:450 bitbang_swd_read_reg(): OK DP read reg C = 00030003
Debug: 919 662 bitbang.c:534 bitbang_swd_run_queue(): bitbang_swd_run_queue
Debug: 920 662 bitbang.c:360 bitbang_exchange(): bitbang_exchange
Debug: 921 662 bitbang.c:541 bitbang_swd_run_queue(): SWD queue return value: 00
Debug: 922 762 bitbang.c:423 bitbang_swd_read_reg(): bitbang_swd_read_reg
Debug: 923 762 bitbang.c:360 bitbang_exchange(): bitbang_exchange
Debug: 924 762 bitbang.c:360 bitbang_exchange(): bitbang_exchange
Debug: 925 763 bitbang.c:450 bitbang_swd_read_reg(): OK AP read reg 0 = 00030003
Debug: 926 763 bitbang.c:360 bitbang_exchange(): bitbang_exchange
Debug: 927 763 bitbang.c:423 bitbang_swd_read_reg(): bitbang_swd_read_reg
Debug: 928 763 bitbang.c:360 bitbang_exchange(): bitbang_exchange
Debug: 929 763 bitbang.c:360 bitbang_exchange(): bitbang_exchange
Debug: 930 764 bitbang.c:450 bitbang_swd_read_reg(): OK DP read reg C = 00030003
Debug: 931 764 bitbang.c:534 bitbang_swd_run_queue(): bitbang_swd_run_queue
Debug: 932 764 bitbang.c:360 bitbang_exchange(): bitbang_exchange
Debug: 933 764 bitbang.c:541 bitbang_swd_run_queue(): SWD queue return value: 00
Debug: 934 864 bitbang.c:423 bitbang_swd_read_reg(): bitbang_swd_read_reg
Debug: 935 864 bitbang.c:360 bitbang_exchange(): bitbang_exchange
Debug: 936 864 bitbang.c:360 bitbang_exchange(): bitbang_exchange
Debug: 937 865 bitbang.c:450 bitbang_swd_read_reg(): OK AP read reg 0 = 00030003
Debug: 938 865 bitbang.c:360 bitbang_exchange(): bitbang_exchange
Debug: 939 865 bitbang.c:423 bitbang_swd_read_reg(): bitbang_swd_read_reg
Debug: 940 865 bitbang.c:360 bitbang_exchange(): bitbang_exchange
Debug: 941 865 bitbang.c:360 bitbang_exchange(): bitbang_exchange
Debug: 942 866 bitbang.c:450 bitbang_swd_read_reg(): OK DP read reg C = 00030003
Debug: 943 866 bitbang.c:534 bitbang_swd_run_queue(): bitbang_swd_run_queue
Debug: 944 866 bitbang.c:360 bitbang_exchange(): bitbang_exchange
Debug: 945 866 bitbang.c:541 bitbang_swd_run_queue(): SWD queue return value: 00
Debug: 946 966 bitbang.c:423 bitbang_swd_read_reg(): bitbang_swd_read_reg
Debug: 947 966 bitbang.c:360 bitbang_exchange(): bitbang_exchange
Debug: 948 966 bitbang.c:360 bitbang_exchange(): bitbang_exchange
Debug: 949 967 bitbang.c:450 bitbang_swd_read_reg(): OK AP read reg 0 = 00030003
Debug: 950 967 bitbang.c:360 bitbang_exchange(): bitbang_exchange
Debug: 951 967 bitbang.c:423 bitbang_swd_read_reg(): bitbang_swd_read_reg
Debug: 952 967 bitbang.c:360 bitbang_exchange(): bitbang_exchange
Debug: 953 967 bitbang.c:360 bitbang_exchange(): bitbang_exchange
Debug: 954 968 bitbang.c:450 bitbang_swd_read_reg(): OK DP read reg C = 00030003
Debug: 955 968 bitbang.c:534 bitbang_swd_run_queue(): bitbang_swd_run_queue
Debug: 956 968 bitbang.c:360 bitbang_exchange(): bitbang_exchange
Debug: 957 968 bitbang.c:541 bitbang_swd_run_queue(): SWD queue return value: 00
Debug: 958 1068 bitbang.c:423 bitbang_swd_read_reg(): bitbang_swd_read_reg
Debug: 959 1068 bitbang.c:360 bitbang_exchange(): bitbang_exchange
Debug: 960 1068 bitbang.c:360 bitbang_exchange(): bitbang_exchange
Debug: 961 1069 bitbang.c:450 bitbang_swd_read_reg(): OK AP read reg 0 = 00030003
Debug: 962 1069 bitbang.c:360 bitbang_exchange(): bitbang_exchange
Debug: 963 1069 bitbang.c:423 bitbang_swd_read_reg(): bitbang_swd_read_reg
Debug: 964 1069 bitbang.c:360 bitbang_exchange(): bitbang_exchange
Debug: 965 1069 bitbang.c:360 bitbang_exchange(): bitbang_exchange
Debug: 966 1070 bitbang.c:450 bitbang_swd_read_reg(): OK DP read reg C = 00030003
Debug: 967 1070 bitbang.c:534 bitbang_swd_run_queue(): bitbang_swd_run_queue
Debug: 968 1070 bitbang.c:360 bitbang_exchange(): bitbang_exchange
Debug: 969 1070 bitbang.c:541 bitbang_swd_run_queue(): SWD queue return value: 00
Debug: 970 1170 bitbang.c:423 bitbang_swd_read_reg(): bitbang_swd_read_reg
Debug: 971 1170 bitbang.c:360 bitbang_exchange(): bitbang_exchange
Debug: 972 1170 bitbang.c:360 bitbang_exchange(): bitbang_exchange
Debug: 973 1171 bitbang.c:450 bitbang_swd_read_reg(): OK AP read reg 0 = 00030003
Debug: 974 1171 bitbang.c:360 bitbang_exchange(): bitbang_exchange
Debug: 975 1171 bitbang.c:423 bitbang_swd_read_reg(): bitbang_swd_read_reg
Debug: 976 1171 bitbang.c:360 bitbang_exchange(): bitbang_exchange
Debug: 977 1171 bitbang.c:360 bitbang_exchange(): bitbang_exchange
Debug: 978 1172 bitbang.c:450 bitbang_swd_read_reg(): OK DP read reg C = 00030003
Debug: 979 1172 bitbang.c:534 bitbang_swd_run_queue(): bitbang_swd_run_queue
Debug: 980 1172 bitbang.c:360 bitbang_exchange(): bitbang_exchange
Debug: 981 1172 bitbang.c:541 bitbang_swd_run_queue(): SWD queue return value: 00
Debug: 982 1272 bitbang.c:423 bitbang_swd_read_reg(): bitbang_swd_read_reg
Debug: 983 1272 bitbang.c:360 bitbang_exchange(): bitbang_exchange
Debug: 984 1273 bitbang.c:360 bitbang_exchange(): bitbang_exchange
Debug: 985 1273 bitbang.c:450 bitbang_swd_read_reg(): OK AP read reg 0 = 00030003
Debug: 986 1273 bitbang.c:360 bitbang_exchange(): bitbang_exchange
Debug: 987 1273 bitbang.c:423 bitbang_swd_read_reg(): bitbang_swd_read_reg
Debug: 988 1273 bitbang.c:360 bitbang_exchange(): bitbang_exchange
Debug: 989 1274 bitbang.c:360 bitbang_exchange(): bitbang_exchange
Debug: 990 1274 bitbang.c:450 bitbang_swd_read_reg(): OK DP read reg C = 00030003
Debug: 991 1274 bitbang.c:534 bitbang_swd_run_queue(): bitbang_swd_run_queue
Debug: 992 1274 bitbang.c:360 bitbang_exchange(): bitbang_exchange
Debug: 993 1274 bitbang.c:541 bitbang_swd_run_queue(): SWD queue return value: 00
Debug: 994 1375 bitbang.c:423 bitbang_swd_read_reg(): bitbang_swd_read_reg
Debug: 995 1375 bitbang.c:360 bitbang_exchange(): bitbang_exchange
Debug: 996 1375 bitbang.c:360 bitbang_exchange(): bitbang_exchange
Debug: 997 1375 bitbang.c:450 bitbang_swd_read_reg(): OK AP read reg 0 = 00030003
Debug: 998 1375 bitbang.c:360 bitbang_exchange(): bitbang_exchange
Debug: 999 1376 bitbang.c:423 bitbang_swd_read_reg(): bitbang_swd_read_reg
Debug: 1000 1376 bitbang.c:360 bitbang_exchange(): bitbang_exchange
Debug: 1001 1376 bitbang.c:360 bitbang_exchange(): bitbang_exchange
Debug: 1002 1376 bitbang.c:450 bitbang_swd_read_reg(): OK DP read reg C = 00030003
Debug: 1003 1376 bitbang.c:534 bitbang_swd_run_queue(): bitbang_swd_run_queue
